
T29E4 000:434 SEGGER J-Link V4.80g Log File (0003ms, 0270ms total)
T29E4 000:434 DLL Compiled: Feb 13 2014 20:50:02 (0003ms, 0270ms total)
T29E4 000:434 Logging started @ 2016-09-29 22:11 (0003ms, 0270ms total)
T29E4 000:437 JLINK_SetWarnOutHandler(...) (0000ms, 0270ms total)
T29E4 000:437 JLINK_OpenEx(...)
Firmware: J-Link ARM V8 compiled Nov 25 2013 19:20:08
Hardware: V8.00
S/N: 308622870
Feature(s): RDI,FlashDL,FlashBP,JFlash,GDBFULL  returns O.K. (0264ms, 0534ms total)
T29E4 000:701 JLINK_SetErrorOutHandler(...) (0000ms, 0534ms total)
T29E4 000:701 JLINK_ExecCommand("ProjectFile = "C:\mcu\mcu-app\FreeRTOS_stm32f407\Project\ARM_MDK\JLinkSettings.ini"", ...)  returns 0x00 (0003ms, 0537ms total)
T29E4 000:716 JLINK_ExecCommand("Device = STM32F407VE", ...)Device "STM32F407VE" selected (512 KB flash, 128 KB RAM).  returns 0x00 (0007ms, 0544ms total)
T29E4 000:723 JLINK_ExecCommand("DisableConnectionTimeout", ...)  returns 0x01 (0000ms, 0544ms total)
T29E4 000:723 JLINK_GetHardwareVersion()  returns 0x13880 (0000ms, 0544ms total)
T29E4 000:723 JLINK_GetDLLVersion()  returns 48007 (0000ms, 0544ms total)
T29E4 000:723 JLINK_GetFirmwareString(...) (0000ms, 0544ms total)
T29E4 000:745 JLINK_GetDLLVersion()  returns 48007 (0000ms, 0544ms total)
T29E4 000:745 JLINK_GetCompileDateTime() (0000ms, 0544ms total)
T29E4 000:748 JLINK_GetFirmwareString(...) (0000ms, 0544ms total)
T29E4 000:752 JLINK_GetHardwareVersion()  returns 0x13880 (0000ms, 0544ms total)
T29E4 000:763 JLINK_TIF_Select(JLINKARM_TIF_SWD)  returns 0x00 (0001ms, 0545ms total)
T29E4 000:764 JLINK_SetSpeed(50) (0000ms, 0545ms total)
T29E4 000:764 JLINK_GetId() >0x108 TIF>Found SWD-DP with ID 0x2BA01477 >0x0D TIF> >0x28 TIF> >0x0D TIF> >0x28 TIF> >0x0D TIF> >0x21 TIF> >0x0D TIF> >0x28 TIF> >0x0D TIF> >0x28 TIF> >0x0D TIF> >0x28 TIF> >0x0D TIF> >0x21 TIF> >0x0D TIF> >0x21 TIF> >0x0D TIF> >0x28 TIF> >0x0D TIF> >0x21 TIF> >0x0D TIF> >0x21 TIF> >0x0D TIF> >0x28 TIF> >0x0D TIF> >0x21 TIF> >0x0D TIF> >0x21 TIF> >0x108 TIF>Found SWD-DP with ID 0x2BA01477 >0x0D TIF> >0x21 TIF> >0x0D TIF> >0x28 TIF> >0x0D TIF> >0x28 TIF> >0x0D TIF> >0x21 TIF>
 >0x0D TIF> >0x28 TIF> >0x0D TIF> >0x21 TIF> >0x0D TIF> >0x21 TIF> >0x0D TIF> >0x21 TIF> >0x0D TIF> >0x21 TIF> >0x0D TIF> >0x28 TIF> >0x0D TIF> >0x28 TIF> >0x0D TIF> >0x21 TIF> >0x0D TIF> >0x28 TIF> >0x0D TIF> >0x28 TIF> >0x0D TIF> >0x28 TIF> >0x0D TIF> >0x21 TIF> >0x0D TIF> >0x21 TIF> >0x0D TIF> >0x28 TIF> >0x0D TIF> >0x21 TIF> >0x0D TIF> >0x21 TIF>Found Cortex-M4 r0p1, Little endian. -- CPU_WriteMem(4 bytes @ 0xE0002000) -- CPU_ReadMem(4 bytes @ 0xE000EDF0) -- CPU_ReadMem(4 bytes @ 0xE0002000)
FPUnit: 6 code (BP) slots and 2 literal slots -- CPU_ReadMem(4 bytes @ 0xE000EDFC) -- CPU_ReadMem(4 bytes @ 0xE0001000) -- CPU_WriteMem(4 bytes @ 0xE0001000) -- CPU_ReadMem(4 bytes @ 0xE00FF010)TPIU fitted. -- CPU_ReadMem(4 bytes @ 0xE00FF014)ETM fitted. -- CPU_ReadMem(4 bytes @ 0xE00FF018) >0x0D TIF> >0x21 TIF>  returns 0x2BA01477 (0165ms, 0710ms total)
T29E4 000:929 JLINK_GetDeviceFamily()  returns 14 (0000ms, 0710ms total)
T29E4 000:939 JLINK_ReadMem (0xE00FFFF0, 0x0010 Bytes, ...) -- CPU is running -- CPU_ReadMem(16 bytes @ 0xE00FFFF0) -- Data:  0D 00 00 00 10 00 00 00 05 00 00 00 B1 00 00 00  returns 0x00 (0009ms, 0719ms total)
T29E4 000:948 JLINK_ReadMem (0xE00FFFD0, 0x0020 Bytes, ...) -- CPU is running -- CPU_ReadMem(32 bytes @ 0xE00FFFD0) -- Data:  00 00 00 00 00 00 00 00 00 00 00 00 00 00 00 00 ...  returns 0x00 (0014ms, 0733ms total)
T29E4 000:962 JLINK_ReadMem (0xE00FF000, 0x0018 Bytes, ...) -- CPU is running -- CPU_ReadMem(24 bytes @ 0xE00FF000) -- Data:  03 F0 F0 FF 03 20 F0 FF 03 30 F0 FF 03 10 F0 FF ...  returns 0x00 (0011ms, 0744ms total)
T29E4 000:973 JLINK_ReadMemU32(0xE000ED00, 0x0001 Items, ...) -- CPU is running -- CPU_ReadMem(4 bytes @ 0xE000ED00) -- Data:  41 C2 0F 41  returns 0x01 (0007ms, 0751ms total)
T29E4 000:980 JLINK_ReadMemU32(0xE000EF40, 0x0001 Items, ...) -- CPU is running -- CPU_ReadMem(4 bytes @ 0xE000EF40) -- Data:  21 00 11 10  returns 0x01 (0006ms, 0757ms total)
T29E4 000:986 JLINK_ReadMemU32(0xE000EF44, 0x0001 Items, ...) -- CPU is running -- CPU_ReadMem(4 bytes @ 0xE000EF44) -- Data:  11 00 00 11  returns 0x01 (0007ms, 0764ms total)
T29E4 000:993 JLINK_SetResetType(JLINKARM_RESET_TYPE_NORMAL)  returns JLINKARM_RESET_TYPE_NORMAL (0000ms, 0764ms total)
T29E4 000:993 JLINK_Reset() -- CPU is running -- CPU_WriteMem(4 bytes @ 0xE000EDF0) -- CPU is running -- CPU_WriteMem(4 bytes @ 0xE000EDFC) >0x35 TIF> -- CPU is running -- CPU_WriteMem(4 bytes @ 0xE000ED0C) -- CPU is running -- CPU_ReadMem(4 bytes @ 0xE000EDF0) -- CPU is running -- CPU_ReadMem(4 bytes @ 0xE000EDF0) -- CPU is running -- CPU_WriteMem(4 bytes @ 0xE000EDF0) -- CPU is running -- CPU_WriteMem(4 bytes @ 0xE000EDFC) -- CPU is running -- CPU_ReadMem(4 bytes @ 0xE000EDF0)
 -- CPU_WriteMem(4 bytes @ 0xE0002000) -- CPU_ReadMem(4 bytes @ 0xE000EDFC) -- CPU_ReadMem(4 bytes @ 0xE0001000) (0155ms, 0919ms total)
T29E4 001:148 JLINK_Halt()  returns 0x00 (0000ms, 0919ms total)
T29E4 001:148 JLINK_IsHalted()  returns TRUE (0000ms, 0919ms total)
T29E4 001:148 JLINK_ReadMemU32(0xE000EDF0, 0x0001 Items, ...) -- CPU_ReadMem(4 bytes @ 0xE000EDF0) -- Data:  03 00 03 00  returns 0x01 (0007ms, 0926ms total)
T29E4 001:155 JLINK_WriteU32(0xE000EDF0, 0xA05F0003) -- CPU_WriteMem(4 bytes @ 0xE000EDF0)  returns 0x00 (0006ms, 0932ms total)
T29E4 001:161 JLINK_WriteU32(0xE000EDFC, 0x01000000) -- CPU_WriteMem(4 bytes @ 0xE000EDFC)  returns 0x00 (0007ms, 0939ms total)
T29E4 001:200 JLINK_GetHWStatus(...)  returns 0x00 (0000ms, 0939ms total)
T29E4 001:216 JLINK_GetNumBPUnits(Type = 0xFFFFFF00)  returns 0x06 (0000ms, 0939ms total)
T29E4 001:216 JLINK_GetNumBPUnits(Type = 0xF0)  returns 0x2000 (0000ms, 0939ms total)
T29E4 001:216 JLINK_GetNumWPUnits()  returns 0x04 (0000ms, 0939ms total)
T29E4 001:230 JLINK_GetSpeed()  returns 0x32 (0000ms, 0939ms total)
T29E4 001:236 JLINK_ReadMemU32(0xE000E004, 0x0001 Items, ...) -- CPU_ReadMem(4 bytes @ 0xE000E004) -- Data:  02 00 00 00  returns 0x01 (0006ms, 0945ms total)
T29E4 001:243 JLINK_ReadMemU32(0xE000E004, 0x0001 Items, ...) -- CPU_ReadMem(4 bytes @ 0xE000E004) -- Data:  02 00 00 00  returns 0x01 (0006ms, 0952ms total)
T29E4 001:249 JLINK_WriteMem(0xE0001000, 0x001C Bytes, ...) -- Data:  01 00 00 00 00 00 00 00 00 00 00 00 00 00 00 00 ... -- CPU_WriteMem(28 bytes @ 0xE0001000)  returns 0x1C (0012ms, 0964ms total)
T29E4 001:261 JLINK_ReadMem (0xE0001000, 0x001C Bytes, ...) -- CPU_ReadMem(28 bytes @ 0xE0001000) -- Data:  01 00 00 40 00 00 00 00 00 00 00 00 00 00 00 00 ...  returns 0x00 (0012ms, 0976ms total)
T29E4 001:273 JLINK_Halt()  returns 0x00 (0000ms, 0976ms total)
T29E4 001:273 JLINK_IsHalted()  returns TRUE (0000ms, 0976ms total)
T29E4 001:276 JLINK_WriteMem(0x20000000, 0x0180 Bytes, ...) -- Data:  00 BE 0A E0 0D 78 2D 06 68 40 08 24 40 00 00 D3 ... -- CPU_WriteMem(384 bytes @ 0x20000000)  returns 0x180 (0098ms, 1074ms total)
T29E4 001:374 JLINK_WriteReg(R0, 0x08000000)  returns 0x00 (0000ms, 1074ms total)
T29E4 001:374 JLINK_WriteReg(R1, 0x00B71B00)  returns 0x00 (0000ms, 1074ms total)
T29E4 001:374 JLINK_WriteReg(R2, 0x00000001)  returns 0x00 (0000ms, 1074ms total)
T29E4 001:374 JLINK_WriteReg(R3, 0x00000000)  returns 0x00 (0000ms, 1074ms total)
T29E4 001:374 JLINK_WriteReg(R4, 0x00000000)  returns 0x00 (0000ms, 1074ms total)
T29E4 001:374 JLINK_WriteReg(R5, 0x00000000)  returns 0x00 (0000ms, 1074ms total)
T29E4 001:374 JLINK_WriteReg(R6, 0x00000000)  returns 0x00 (0000ms, 1074ms total)
T29E4 001:374 JLINK_WriteReg(R7, 0x00000000)  returns 0x00 (0000ms, 1074ms total)
T29E4 001:374 JLINK_WriteReg(R8, 0x00000000)  returns 0x00 (0001ms, 1075ms total)
T29E4 001:375 JLINK_WriteReg(R9, 0x2000017C)  returns 0x00 (0000ms, 1075ms total)
T29E4 001:375 JLINK_WriteReg(R10, 0x00000000)  returns 0x00 (0000ms, 1075ms total)
T29E4 001:375 JLINK_WriteReg(R11, 0x00000000)  returns 0x00 (0000ms, 1075ms total)
T29E4 001:375 JLINK_WriteReg(R12, 0x00000000)  returns 0x00 (0000ms, 1075ms total)
T29E4 001:375 JLINK_WriteReg(R13 (SP), 0x20001000)  returns 0x00 (0000ms, 1075ms total)
T29E4 001:375 JLINK_WriteReg(R14, 0x20000001)  returns 0x00 (0000ms, 1075ms total)
T29E4 001:375 JLINK_WriteReg(R15 (PC), 0x20000054)  returns 0x00 (0000ms, 1075ms total)
T29E4 001:375 JLINK_WriteReg(XPSR, 0x01000000)  returns 0x00 (0000ms, 1075ms total)
T29E4 001:375 JLINK_WriteReg(MSP, 0x20001000)  returns 0x00 (0000ms, 1075ms total)
T29E4 001:375 JLINK_WriteReg(PSP, 0x20001000)  returns 0x00 (0000ms, 1075ms total)
T29E4 001:375 JLINK_WriteReg(CFBP, 0x00000000)  returns 0x00 (0000ms, 1075ms total)
T29E4 001:375 JLINK_SetBPEx(Addr = 0x20000000, Type = 0xFFFFFFF2) -- CPU_ReadMem(2 bytes @ 0x20000000)  returns 0x00000001 (0006ms, 1081ms total)
T29E4 001:381 JLINK_Go() -- CPU_WriteMem(2 bytes @ 0x20000000) -- CPU_WriteMem(4 bytes @ 0xE0002008) -- CPU_WriteMem(4 bytes @ 0xE000200C) -- CPU_WriteMem(4 bytes @ 0xE0002010) -- CPU_WriteMem(4 bytes @ 0xE0002014) -- CPU_WriteMem(4 bytes @ 0xE0002018) -- CPU_WriteMem(4 bytes @ 0xE000201C) -- CPU_WriteMem(4 bytes @ 0xE0001004) (0080ms, 1161ms total)
T29E4 001:461 JLINK_IsHalted() -- CPU_ReadMem(2 bytes @ 0x20000000)  returns TRUE (0077ms, 1238ms total)
T29E4 001:538 JLINK_ReadReg(R15 (PC))  returns 0x20000000 (0000ms, 1161ms total)
T29E4 001:538 JLINK_ClrBPEx(BPHandle = 0x00000001)  returns 0x00 (0000ms, 1161ms total)
T29E4 001:538 JLINK_ReadReg(R0)  returns 0x00000000 (0000ms, 1161ms total)
T29E4 001:538 JLINK_WriteReg(R0, 0x08000000)  returns 0x00 (0000ms, 1161ms total)
T29E4 001:538 JLINK_WriteReg(R1, 0x00004000)  returns 0x00 (0000ms, 1161ms total)
T29E4 001:538 JLINK_WriteReg(R2, 0x000000FF)  returns 0x00 (0000ms, 1161ms total)
T29E4 001:538 JLINK_WriteReg(R3, 0x00000000)  returns 0x00 (0000ms, 1161ms total)
T29E4 001:538 JLINK_WriteReg(R4, 0x00000000)  returns 0x00 (0000ms, 1161ms total)
T29E4 001:538 JLINK_WriteReg(R5, 0x00000000)  returns 0x00 (0000ms, 1161ms total)
T29E4 001:538 JLINK_WriteReg(R6, 0x00000000)  returns 0x00 (0000ms, 1161ms total)
T29E4 001:538 JLINK_WriteReg(R7, 0x00000000)  returns 0x00 (0000ms, 1161ms total)
T29E4 001:538 JLINK_WriteReg(R8, 0x00000000)  returns 0x00 (0000ms, 1161ms total)
T29E4 001:538 JLINK_WriteReg(R9, 0x2000017C)  returns 0x00 (0000ms, 1161ms total)
T29E4 001:538 JLINK_WriteReg(R10, 0x00000000)  returns 0x00 (0000ms, 1161ms total)
T29E4 001:538 JLINK_WriteReg(R11, 0x00000000)  returns 0x00 (0000ms, 1161ms total)
T29E4 001:538 JLINK_WriteReg(R12, 0x00000000)  returns 0x00 (0000ms, 1161ms total)
T29E4 001:538 JLINK_WriteReg(R13 (SP), 0x20001000)  returns 0x00 (0000ms, 1161ms total)
T29E4 001:538 JLINK_WriteReg(R14, 0x20000001)  returns 0x00 (0000ms, 1161ms total)
T29E4 001:538 JLINK_WriteReg(R15 (PC), 0x20000020)  returns 0x00 (0000ms, 1161ms total)
T29E4 001:538 JLINK_WriteReg(XPSR, 0x01000000)  returns 0x00 (0000ms, 1161ms total)
T29E4 001:538 JLINK_WriteReg(MSP, 0x20001000)  returns 0x00 (0000ms, 1161ms total)
T29E4 001:538 JLINK_WriteReg(PSP, 0x20001000)  returns 0x00 (0000ms, 1161ms total)
T29E4 001:538 JLINK_WriteReg(CFBP, 0x00000000)  returns 0x00 (0000ms, 1161ms total)
T29E4 001:538 JLINK_SetBPEx(Addr = 0x20000000, Type = 0xFFFFFFF2)  returns 0x00000002 (0000ms, 1161ms total)
T29E4 001:538 JLINK_Go() (0025ms, 1186ms total)
T29E4 001:563 JLINK_IsHalted() -- CPU_ReadMem(2 bytes @ 0x20000000)  returns TRUE (0077ms, 1263ms total)
T29E4 001:640 JLINK_ReadReg(R15 (PC))  returns 0x20000000 (0000ms, 1186ms total)
T29E4 001:640 JLINK_ClrBPEx(BPHandle = 0x00000002)  returns 0x00 (0000ms, 1186ms total)
T29E4 001:640 JLINK_ReadReg(R0)  returns 0x00000001 (0000ms, 1186ms total)
T29E4 001:640 JLINK_WriteReg(R0, 0x08000000)  returns 0x00 (0000ms, 1186ms total)
T29E4 001:640 JLINK_WriteReg(R1, 0x00004000)  returns 0x00 (0000ms, 1186ms total)
T29E4 001:640 JLINK_WriteReg(R2, 0x000000FF)  returns 0x00 (0000ms, 1186ms total)
T29E4 001:640 JLINK_WriteReg(R3, 0x00000000)  returns 0x00 (0000ms, 1186ms total)
T29E4 001:640 JLINK_WriteReg(R4, 0x00000000)  returns 0x00 (0000ms, 1186ms total)
T29E4 001:640 JLINK_WriteReg(R5, 0x00000000)  returns 0x00 (0000ms, 1186ms total)
T29E4 001:640 JLINK_WriteReg(R6, 0x00000000)  returns 0x00 (0000ms, 1186ms total)
T29E4 001:640 JLINK_WriteReg(R7, 0x00000000)  returns 0x00 (0000ms, 1186ms total)
T29E4 001:640 JLINK_WriteReg(R8, 0x00000000)  returns 0x00 (0000ms, 1186ms total)
T29E4 001:640 JLINK_WriteReg(R9, 0x2000017C)  returns 0x00 (0000ms, 1186ms total)
T29E4 001:640 JLINK_WriteReg(R10, 0x00000000)  returns 0x00 (0001ms, 1187ms total)
T29E4 001:641 JLINK_WriteReg(R11, 0x00000000)  returns 0x00 (0000ms, 1187ms total)
T29E4 001:641 JLINK_WriteReg(R12, 0x00000000)  returns 0x00 (0000ms, 1187ms total)
T29E4 001:641 JLINK_WriteReg(R13 (SP), 0x20001000)  returns 0x00 (0000ms, 1187ms total)
T29E4 001:641 JLINK_WriteReg(R14, 0x20000001)  returns 0x00 (0000ms, 1187ms total)
T29E4 001:641 JLINK_WriteReg(R15 (PC), 0x200000BC)  returns 0x00 (0000ms, 1187ms total)
T29E4 001:641 JLINK_WriteReg(XPSR, 0x01000000)  returns 0x00 (0000ms, 1187ms total)
T29E4 001:641 JLINK_WriteReg(MSP, 0x20001000)  returns 0x00 (0000ms, 1187ms total)
T29E4 001:641 JLINK_WriteReg(PSP, 0x20001000)  returns 0x00 (0000ms, 1187ms total)
T29E4 001:641 JLINK_WriteReg(CFBP, 0x00000000)  returns 0x00 (0000ms, 1187ms total)
T29E4 001:641 JLINK_SetBPEx(Addr = 0x20000000, Type = 0xFFFFFFF2)  returns 0x00000003 (0000ms, 1187ms total)
T29E4 001:641 JLINK_Go() (0025ms, 1212ms total)
T29E4 001:666 JLINK_IsHalted()  returns FALSE (0006ms, 1218ms total)
T29E4 001:836 JLINK_IsHalted()  returns FALSE (0007ms, 1219ms total)
T29E4 001:941 JLINK_IsHalted()  returns FALSE (0006ms, 1218ms total)
T29E4 002:044 JLINK_IsHalted() -- CPU_ReadMem(2 bytes @ 0x20000000)  returns TRUE (0076ms, 1288ms total)
T29E4 002:120 JLINK_ReadReg(R15 (PC))  returns 0x20000000 (0000ms, 1212ms total)
T29E4 002:120 JLINK_ClrBPEx(BPHandle = 0x00000003)  returns 0x00 (0000ms, 1212ms total)
T29E4 002:120 JLINK_ReadReg(R0)  returns 0x00000000 (0000ms, 1212ms total)
T29E4 002:121 JLINK_WriteReg(R0, 0x08004000)  returns 0x00 (0000ms, 1212ms total)
T29E4 002:121 JLINK_WriteReg(R1, 0x00004000)  returns 0x00 (0000ms, 1212ms total)
T29E4 002:121 JLINK_WriteReg(R2, 0x000000FF)  returns 0x00 (0000ms, 1212ms total)
T29E4 002:121 JLINK_WriteReg(R3, 0x00000000)  returns 0x00 (0000ms, 1212ms total)
T29E4 002:121 JLINK_WriteReg(R4, 0x00000000)  returns 0x00 (0000ms, 1212ms total)
T29E4 002:121 JLINK_WriteReg(R5, 0x00000000)  returns 0x00 (0000ms, 1212ms total)
T29E4 002:121 JLINK_WriteReg(R6, 0x00000000)  returns 0x00 (0000ms, 1212ms total)
T29E4 002:122 JLINK_WriteReg(R7, 0x00000000)  returns 0x00 (0000ms, 1213ms total)
T29E4 002:122 JLINK_WriteReg(R8, 0x00000000)  returns 0x00 (0000ms, 1213ms total)
T29E4 002:122 JLINK_WriteReg(R9, 0x2000017C)  returns 0x00 (0000ms, 1213ms total)
T29E4 002:122 JLINK_WriteReg(R10, 0x00000000)  returns 0x00 (0000ms, 1213ms total)
T29E4 002:122 JLINK_WriteReg(R11, 0x00000000)  returns 0x00 (0000ms, 1213ms total)
T29E4 002:122 JLINK_WriteReg(R12, 0x00000000)  returns 0x00 (0000ms, 1213ms total)
T29E4 002:122 JLINK_WriteReg(R13 (SP), 0x20001000)  returns 0x00 (0000ms, 1213ms total)
T29E4 002:122 JLINK_WriteReg(R14, 0x20000001)  returns 0x00 (0000ms, 1213ms total)
T29E4 002:122 JLINK_WriteReg(R15 (PC), 0x20000020)  returns 0x00 (0000ms, 1213ms total)
T29E4 002:122 JLINK_WriteReg(XPSR, 0x01000000)  returns 0x00 (0000ms, 1213ms total)
T29E4 002:122 JLINK_WriteReg(MSP, 0x20001000)  returns 0x00 (0000ms, 1213ms total)
T29E4 002:122 JLINK_WriteReg(PSP, 0x20001000)  returns 0x00 (0000ms, 1213ms total)
T29E4 002:122 JLINK_WriteReg(CFBP, 0x00000000)  returns 0x00 (0000ms, 1213ms total)
T29E4 002:122 JLINK_SetBPEx(Addr = 0x20000000, Type = 0xFFFFFFF2)  returns 0x00000004 (0000ms, 1213ms total)
T29E4 002:122 JLINK_Go() (0030ms, 1243ms total)
T29E4 002:153 JLINK_IsHalted() -- CPU_ReadMem(2 bytes @ 0x20000000)  returns TRUE (0077ms, 1321ms total)
T29E4 002:230 JLINK_ReadReg(R15 (PC))  returns 0x20000000 (0000ms, 1244ms total)
T29E4 002:230 JLINK_ClrBPEx(BPHandle = 0x00000004)  returns 0x00 (0000ms, 1244ms total)
T29E4 002:230 JLINK_ReadReg(R0)  returns 0x00000001 (0000ms, 1244ms total)
T29E4 002:230 JLINK_WriteReg(R0, 0x08004000)  returns 0x00 (0000ms, 1244ms total)
T29E4 002:230 JLINK_WriteReg(R1, 0x00004000)  returns 0x00 (0000ms, 1244ms total)
T29E4 002:230 JLINK_WriteReg(R2, 0x000000FF)  returns 0x00 (0000ms, 1244ms total)
T29E4 002:230 JLINK_WriteReg(R3, 0x00000000)  returns 0x00 (0000ms, 1244ms total)
T29E4 002:230 JLINK_WriteReg(R4, 0x00000000)  returns 0x00 (0000ms, 1244ms total)
T29E4 002:230 JLINK_WriteReg(R5, 0x00000000)  returns 0x00 (0000ms, 1244ms total)
T29E4 002:230 JLINK_WriteReg(R6, 0x00000000)  returns 0x00 (0000ms, 1244ms total)
T29E4 002:230 JLINK_WriteReg(R7, 0x00000000)  returns 0x00 (0000ms, 1244ms total)
T29E4 002:230 JLINK_WriteReg(R8, 0x00000000)  returns 0x00 (0000ms, 1244ms total)
T29E4 002:230 JLINK_WriteReg(R9, 0x2000017C)  returns 0x00 (0001ms, 1245ms total)
T29E4 002:231 JLINK_WriteReg(R10, 0x00000000)  returns 0x00 (0000ms, 1245ms total)
T29E4 002:231 JLINK_WriteReg(R11, 0x00000000)  returns 0x00 (0000ms, 1245ms total)
T29E4 002:231 JLINK_WriteReg(R12, 0x00000000)  returns 0x00 (0000ms, 1245ms total)
T29E4 002:231 JLINK_WriteReg(R13 (SP), 0x20001000)  returns 0x00 (0000ms, 1245ms total)
T29E4 002:231 JLINK_WriteReg(R14, 0x20000001)  returns 0x00 (0000ms, 1245ms total)
T29E4 002:231 JLINK_WriteReg(R15 (PC), 0x200000BC)  returns 0x00 (0000ms, 1245ms total)
T29E4 002:231 JLINK_WriteReg(XPSR, 0x01000000)  returns 0x00 (0000ms, 1245ms total)
T29E4 002:231 JLINK_WriteReg(MSP, 0x20001000)  returns 0x00 (0000ms, 1245ms total)
T29E4 002:231 JLINK_WriteReg(PSP, 0x20001000)  returns 0x00 (0000ms, 1245ms total)
T29E4 002:231 JLINK_WriteReg(CFBP, 0x00000000)  returns 0x00 (0000ms, 1245ms total)
T29E4 002:231 JLINK_SetBPEx(Addr = 0x20000000, Type = 0xFFFFFFF2)  returns 0x00000005 (0000ms, 1245ms total)
T29E4 002:231 JLINK_Go() (0024ms, 1269ms total)
T29E4 002:255 JLINK_IsHalted()  returns FALSE (0007ms, 1276ms total)
T29E4 002:397 JLINK_IsHalted()  returns FALSE (0006ms, 1275ms total)
T29E4 002:503 JLINK_IsHalted()  returns FALSE (0006ms, 1275ms total)
T29E4 002:623 JLINK_IsHalted() -- CPU_ReadMem(2 bytes @ 0x20000000)  returns TRUE (0076ms, 1345ms total)
T29E4 002:699 JLINK_ReadReg(R15 (PC))  returns 0x20000000 (0000ms, 1269ms total)
T29E4 002:699 JLINK_ClrBPEx(BPHandle = 0x00000005)  returns 0x00 (0000ms, 1269ms total)
T29E4 002:699 JLINK_ReadReg(R0)  returns 0x00000000 (0000ms, 1269ms total)
T29E4 002:700 JLINK_WriteReg(R0, 0x00000001)  returns 0x00 (0000ms, 1269ms total)
T29E4 002:700 JLINK_WriteReg(R1, 0x00004000)  returns 0x00 (0000ms, 1269ms total)
T29E4 002:700 JLINK_WriteReg(R2, 0x000000FF)  returns 0x00 (0000ms, 1269ms total)
T29E4 002:700 JLINK_WriteReg(R3, 0x00000000)  returns 0x00 (0000ms, 1269ms total)
T29E4 002:700 JLINK_WriteReg(R4, 0x00000000)  returns 0x00 (0000ms, 1269ms total)
T29E4 002:700 JLINK_WriteReg(R5, 0x00000000)  returns 0x00 (0000ms, 1269ms total)
T29E4 002:700 JLINK_WriteReg(R6, 0x00000000)  returns 0x00 (0000ms, 1269ms total)
T29E4 002:700 JLINK_WriteReg(R7, 0x00000000)  returns 0x00 (0000ms, 1269ms total)
T29E4 002:700 JLINK_WriteReg(R8, 0x00000000)  returns 0x00 (0000ms, 1269ms total)
T29E4 002:700 JLINK_WriteReg(R9, 0x2000017C)  returns 0x00 (0000ms, 1269ms total)
T29E4 002:700 JLINK_WriteReg(R10, 0x00000000)  returns 0x00 (0000ms, 1269ms total)
T29E4 002:700 JLINK_WriteReg(R11, 0x00000000)  returns 0x00 (0000ms, 1269ms total)
T29E4 002:700 JLINK_WriteReg(R12, 0x00000000)  returns 0x00 (0000ms, 1269ms total)
T29E4 002:700 JLINK_WriteReg(R13 (SP), 0x20001000)  returns 0x00 (0000ms, 1269ms total)
T29E4 002:700 JLINK_WriteReg(R14, 0x20000001)  returns 0x00 (0000ms, 1269ms total)
T29E4 002:700 JLINK_WriteReg(R15 (PC), 0x20000082)  returns 0x00 (0000ms, 1269ms total)
T29E4 002:700 JLINK_WriteReg(XPSR, 0x01000000)  returns 0x00 (0000ms, 1269ms total)
T29E4 002:700 JLINK_WriteReg(MSP, 0x20001000)  returns 0x00 (0000ms, 1269ms total)
T29E4 002:700 JLINK_WriteReg(PSP, 0x20001000)  returns 0x00 (0000ms, 1269ms total)
T29E4 002:700 JLINK_WriteReg(CFBP, 0x00000000)  returns 0x00 (0000ms, 1269ms total)
T29E4 002:700 JLINK_SetBPEx(Addr = 0x20000000, Type = 0xFFFFFFF2)  returns 0x00000006 (0000ms, 1269ms total)
T29E4 002:700 JLINK_Go() (0029ms, 1298ms total)
T29E4 002:729 JLINK_IsHalted() -- CPU_ReadMem(2 bytes @ 0x20000000)  returns TRUE (0076ms, 1374ms total)
T29E4 002:805 JLINK_ReadReg(R15 (PC))  returns 0x20000000 (0000ms, 1298ms total)
T29E4 002:805 JLINK_ClrBPEx(BPHandle = 0x00000006)  returns 0x00 (0000ms, 1298ms total)
T29E4 002:805 JLINK_ReadReg(R0)  returns 0x00000000 (0000ms, 1298ms total)
T29E4 002:862 JLINK_WriteMem(0x20000000, 0x0180 Bytes, ...) -- Data:  00 BE 0A E0 0D 78 2D 06 68 40 08 24 40 00 00 D3 ... -- CPU_WriteMem(384 bytes @ 0x20000000)  returns 0x180 (0099ms, 1397ms total)
T29E4 002:961 JLINK_WriteReg(R0, 0x08000000)  returns 0x00 (0000ms, 1397ms total)
T29E4 002:961 JLINK_WriteReg(R1, 0x00B71B00)  returns 0x00 (0000ms, 1397ms total)
T29E4 002:961 JLINK_WriteReg(R2, 0x00000002)  returns 0x00 (0000ms, 1397ms total)
T29E4 002:961 JLINK_WriteReg(R3, 0x00000000)  returns 0x00 (0000ms, 1397ms total)
T29E4 002:961 JLINK_WriteReg(R4, 0x00000000)  returns 0x00 (0000ms, 1397ms total)
T29E4 002:961 JLINK_WriteReg(R5, 0x00000000)  returns 0x00 (0000ms, 1397ms total)
T29E4 002:961 JLINK_WriteReg(R6, 0x00000000)  returns 0x00 (0000ms, 1397ms total)
T29E4 002:961 JLINK_WriteReg(R7, 0x00000000)  returns 0x00 (0001ms, 1398ms total)
T29E4 002:962 JLINK_WriteReg(R8, 0x00000000)  returns 0x00 (0000ms, 1398ms total)
T29E4 002:962 JLINK_WriteReg(R9, 0x2000017C)  returns 0x00 (0000ms, 1398ms total)
T29E4 002:962 JLINK_WriteReg(R10, 0x00000000)  returns 0x00 (0000ms, 1398ms total)
T29E4 002:962 JLINK_WriteReg(R11, 0x00000000)  returns 0x00 (0000ms, 1398ms total)
T29E4 002:962 JLINK_WriteReg(R12, 0x00000000)  returns 0x00 (0000ms, 1398ms total)
T29E4 002:962 JLINK_WriteReg(R13 (SP), 0x20001000)  returns 0x00 (0000ms, 1398ms total)
T29E4 002:962 JLINK_WriteReg(R14, 0x20000001)  returns 0x00 (0000ms, 1398ms total)
T29E4 002:962 JLINK_WriteReg(R15 (PC), 0x20000054)  returns 0x00 (0000ms, 1398ms total)
T29E4 002:962 JLINK_WriteReg(XPSR, 0x01000000)  returns 0x00 (0000ms, 1398ms total)
T29E4 002:962 JLINK_WriteReg(MSP, 0x20001000)  returns 0x00 (0000ms, 1398ms total)
T29E4 002:962 JLINK_WriteReg(PSP, 0x20001000)  returns 0x00 (0000ms, 1398ms total)
T29E4 002:962 JLINK_WriteReg(CFBP, 0x00000000)  returns 0x00 (0000ms, 1398ms total)
T29E4 002:962 JLINK_SetBPEx(Addr = 0x20000000, Type = 0xFFFFFFF2) -- CPU_ReadMem(2 bytes @ 0x20000000)  returns 0x00000007 (0007ms, 1405ms total)
T29E4 002:969 JLINK_Go() -- CPU_WriteMem(2 bytes @ 0x20000000) (0032ms, 1437ms total)
T29E4 003:001 JLINK_IsHalted() -- CPU_ReadMem(2 bytes @ 0x20000000)  returns TRUE (0077ms, 1514ms total)
T29E4 003:078 JLINK_ReadReg(R15 (PC))  returns 0x20000000 (0001ms, 1438ms total)
T29E4 003:079 JLINK_ClrBPEx(BPHandle = 0x00000007)  returns 0x00 (0000ms, 1438ms total)
T29E4 003:079 JLINK_ReadReg(R0)  returns 0x00000000 (0000ms, 1438ms total)
T29E4 003:081 JLINK_WriteMem(0x20000180, 0x0400 Bytes, ...) -- Data:  88 62 00 20 49 03 00 08 B5 1B 00 08 21 17 00 08 ... -- CPU_WriteMem(1024 bytes @ 0x20000180)  returns 0x400 (0249ms, 1687ms total)
T29E4 003:330 JLINK_WriteReg(R0, 0x08000000)  returns 0x00 (0000ms, 1687ms total)
T29E4 003:330 JLINK_WriteReg(R1, 0x00000400)  returns 0x00 (0000ms, 1687ms total)
T29E4 003:330 JLINK_WriteReg(R2, 0x20000180)  returns 0x00 (0000ms, 1687ms total)
T29E4 003:330 JLINK_WriteReg(R3, 0x00000000)  returns 0x00 (0000ms, 1687ms total)
T29E4 003:330 JLINK_WriteReg(R4, 0x00000000)  returns 0x00 (0000ms, 1687ms total)
T29E4 003:330 JLINK_WriteReg(R5, 0x00000000)  returns 0x00 (0000ms, 1687ms total)
T29E4 003:330 JLINK_WriteReg(R6, 0x00000000)  returns 0x00 (0000ms, 1687ms total)
T29E4 003:330 JLINK_WriteReg(R7, 0x00000000)  returns 0x00 (0000ms, 1687ms total)
T29E4 003:330 JLINK_WriteReg(R8, 0x00000000)  returns 0x00 (0000ms, 1687ms total)
T29E4 003:330 JLINK_WriteReg(R9, 0x2000017C)  returns 0x00 (0000ms, 1687ms total)
T29E4 003:330 JLINK_WriteReg(R10, 0x00000000)  returns 0x00 (0002ms, 1689ms total)
T29E4 003:332 JLINK_WriteReg(R11, 0x00000000)  returns 0x00 (0000ms, 1689ms total)
T29E4 003:332 JLINK_WriteReg(R12, 0x00000000)  returns 0x00 (0000ms, 1689ms total)
T29E4 003:332 JLINK_WriteReg(R13 (SP), 0x20001000)  returns 0x00 (0000ms, 1689ms total)
T29E4 003:332 JLINK_WriteReg(R14, 0x20000001)  returns 0x00 (0000ms, 1689ms total)
T29E4 003:332 JLINK_WriteReg(R15 (PC), 0x20000108)  returns 0x00 (0000ms, 1689ms total)
T29E4 003:332 JLINK_WriteReg(XPSR, 0x01000000)  returns 0x00 (0000ms, 1689ms total)
T29E4 003:332 JLINK_WriteReg(MSP, 0x20001000)  returns 0x00 (0000ms, 1689ms total)
T29E4 003:332 JLINK_WriteReg(PSP, 0x20001000)  returns 0x00 (0000ms, 1689ms total)
T29E4 003:332 JLINK_WriteReg(CFBP, 0x00000000)  returns 0x00 (0000ms, 1689ms total)
T29E4 003:332 JLINK_SetBPEx(Addr = 0x20000000, Type = 0xFFFFFFF2)  returns 0x00000008 (0000ms, 1689ms total)
T29E4 003:332 JLINK_Go() (0026ms, 1715ms total)
T29E4 003:358 JLINK_IsHalted() -- CPU_ReadMem(2 bytes @ 0x20000000)  returns TRUE (0077ms, 1792ms total)
T29E4 003:435 JLINK_ReadReg(R15 (PC))  returns 0x20000000 (0000ms, 1715ms total)
T29E4 003:435 JLINK_ClrBPEx(BPHandle = 0x00000008)  returns 0x00 (0000ms, 1715ms total)
T29E4 003:435 JLINK_ReadReg(R0)  returns 0x00000000 (0000ms, 1715ms total)
T29E4 003:436 JLINK_WriteMem(0x20000180, 0x0400 Bytes, ...) -- Data:  70 BD D4 E9 01 21 20 20 90 47 20 6A 40 1C 20 62 ... -- CPU_WriteMem(1024 bytes @ 0x20000180)  returns 0x400 (0249ms, 1964ms total)
T29E4 003:685 JLINK_WriteReg(R0, 0x08000400)  returns 0x00 (0000ms, 1964ms total)
T29E4 003:685 JLINK_WriteReg(R1, 0x00000400)  returns 0x00 (0000ms, 1964ms total)
T29E4 003:685 JLINK_WriteReg(R2, 0x20000180)  returns 0x00 (0000ms, 1964ms total)
T29E4 003:685 JLINK_WriteReg(R3, 0x00000000)  returns 0x00 (0000ms, 1964ms total)
T29E4 003:685 JLINK_WriteReg(R4, 0x00000000)  returns 0x00 (0000ms, 1964ms total)
T29E4 003:685 JLINK_WriteReg(R5, 0x00000000)  returns 0x00 (0000ms, 1964ms total)
T29E4 003:685 JLINK_WriteReg(R6, 0x00000000)  returns 0x00 (0000ms, 1964ms total)
T29E4 003:685 JLINK_WriteReg(R7, 0x00000000)  returns 0x00 (0000ms, 1964ms total)
T29E4 003:685 JLINK_WriteReg(R8, 0x00000000)  returns 0x00 (0000ms, 1964ms total)
T29E4 003:685 JLINK_WriteReg(R9, 0x2000017C)  returns 0x00 (0001ms, 1965ms total)
T29E4 003:686 JLINK_WriteReg(R10, 0x00000000)  returns 0x00 (0000ms, 1965ms total)
T29E4 003:686 JLINK_WriteReg(R11, 0x00000000)  returns 0x00 (0000ms, 1965ms total)
T29E4 003:686 JLINK_WriteReg(R12, 0x00000000)  returns 0x00 (0000ms, 1965ms total)
T29E4 003:686 JLINK_WriteReg(R13 (SP), 0x20001000)  returns 0x00 (0000ms, 1965ms total)
T29E4 003:686 JLINK_WriteReg(R14, 0x20000001)  returns 0x00 (0000ms, 1965ms total)
T29E4 003:686 JLINK_WriteReg(R15 (PC), 0x20000108)  returns 0x00 (0000ms, 1965ms total)
T29E4 003:686 JLINK_WriteReg(XPSR, 0x01000000)  returns 0x00 (0000ms, 1965ms total)
T29E4 003:686 JLINK_WriteReg(MSP, 0x20001000)  returns 0x00 (0000ms, 1965ms total)
T29E4 003:686 JLINK_WriteReg(PSP, 0x20001000)  returns 0x00 (0000ms, 1965ms total)
T29E4 003:686 JLINK_WriteReg(CFBP, 0x00000000)  returns 0x00 (0000ms, 1965ms total)
T29E4 003:686 JLINK_SetBPEx(Addr = 0x20000000, Type = 0xFFFFFFF2)  returns 0x00000009 (0000ms, 1965ms total)
T29E4 003:686 JLINK_Go() (0028ms, 1993ms total)
T29E4 003:714 JLINK_IsHalted() -- CPU_ReadMem(2 bytes @ 0x20000000)  returns TRUE (0078ms, 2071ms total)
T29E4 003:792 JLINK_ReadReg(R15 (PC))  returns 0x20000000 (0000ms, 1993ms total)
T29E4 003:792 JLINK_ClrBPEx(BPHandle = 0x00000009)  returns 0x00 (0000ms, 1993ms total)
T29E4 003:792 JLINK_ReadReg(R0)  returns 0x00000000 (0000ms, 1993ms total)
T29E4 003:793 JLINK_WriteMem(0x20000180, 0x0400 Bytes, ...) -- Data:  70 47 70 47 70 47 70 47 2D E9 F0 47 0D 46 99 46 ... -- CPU_WriteMem(1024 bytes @ 0x20000180)  returns 0x400 (0249ms, 2242ms total)
T29E4 004:042 JLINK_WriteReg(R0, 0x08000800)  returns 0x00 (0000ms, 2242ms total)
T29E4 004:042 JLINK_WriteReg(R1, 0x00000400)  returns 0x00 (0000ms, 2242ms total)
T29E4 004:042 JLINK_WriteReg(R2, 0x20000180)  returns 0x00 (0000ms, 2242ms total)
T29E4 004:042 JLINK_WriteReg(R3, 0x00000000)  returns 0x00 (0000ms, 2242ms total)
T29E4 004:042 JLINK_WriteReg(R4, 0x00000000)  returns 0x00 (0000ms, 2242ms total)
T29E4 004:042 JLINK_WriteReg(R5, 0x00000000)  returns 0x00 (0000ms, 2242ms total)
T29E4 004:042 JLINK_WriteReg(R6, 0x00000000)  returns 0x00 (0000ms, 2242ms total)
T29E4 004:042 JLINK_WriteReg(R7, 0x00000000)  returns 0x00 (0000ms, 2242ms total)
T29E4 004:042 JLINK_WriteReg(R8, 0x00000000)  returns 0x00 (0001ms, 2243ms total)
T29E4 004:043 JLINK_WriteReg(R9, 0x2000017C)  returns 0x00 (0000ms, 2243ms total)
T29E4 004:043 JLINK_WriteReg(R10, 0x00000000)  returns 0x00 (0000ms, 2243ms total)
T29E4 004:043 JLINK_WriteReg(R11, 0x00000000)  returns 0x00 (0000ms, 2243ms total)
T29E4 004:043 JLINK_WriteReg(R12, 0x00000000)  returns 0x00 (0000ms, 2243ms total)
T29E4 004:043 JLINK_WriteReg(R13 (SP), 0x20001000)  returns 0x00 (0000ms, 2243ms total)
T29E4 004:043 JLINK_WriteReg(R14, 0x20000001)  returns 0x00 (0000ms, 2243ms total)
T29E4 004:043 JLINK_WriteReg(R15 (PC), 0x20000108)  returns 0x00 (0000ms, 2243ms total)
T29E4 004:043 JLINK_WriteReg(XPSR, 0x01000000)  returns 0x00 (0000ms, 2243ms total)
T29E4 004:043 JLINK_WriteReg(MSP, 0x20001000)  returns 0x00 (0000ms, 2243ms total)
T29E4 004:043 JLINK_WriteReg(PSP, 0x20001000)  returns 0x00 (0000ms, 2243ms total)
T29E4 004:043 JLINK_WriteReg(CFBP, 0x00000000)  returns 0x00 (0000ms, 2243ms total)
T29E4 004:043 JLINK_SetBPEx(Addr = 0x20000000, Type = 0xFFFFFFF2)  returns 0x0000000A (0000ms, 2243ms total)
T29E4 004:043 JLINK_Go() (0026ms, 2269ms total)
T29E4 004:069 JLINK_IsHalted() -- CPU_ReadMem(2 bytes @ 0x20000000)  returns TRUE (0076ms, 2345ms total)
T29E4 004:145 JLINK_ReadReg(R15 (PC))  returns 0x20000000 (0000ms, 2269ms total)
T29E4 004:145 JLINK_ClrBPEx(BPHandle = 0x0000000A)  returns 0x00 (0000ms, 2269ms total)
T29E4 004:145 JLINK_ReadReg(R0)  returns 0x00000000 (0000ms, 2269ms total)
T29E4 004:146 JLINK_WriteMem(0x20000180, 0x0400 Bytes, ...) -- Data:  06 EB 46 06 03 FA 06 F1 08 43 E0 60 0C E0 20 69 ... -- CPU_WriteMem(1024 bytes @ 0x20000180)  returns 0x400 (0249ms, 2518ms total)
T29E4 004:395 JLINK_WriteReg(R0, 0x08000C00)  returns 0x00 (0000ms, 2518ms total)
T29E4 004:395 JLINK_WriteReg(R1, 0x00000400)  returns 0x00 (0000ms, 2518ms total)
T29E4 004:395 JLINK_WriteReg(R2, 0x20000180)  returns 0x00 (0000ms, 2518ms total)
T29E4 004:395 JLINK_WriteReg(R3, 0x00000000)  returns 0x00 (0000ms, 2518ms total)
T29E4 004:395 JLINK_WriteReg(R4, 0x00000000)  returns 0x00 (0000ms, 2518ms total)
T29E4 004:395 JLINK_WriteReg(R5, 0x00000000)  returns 0x00 (0000ms, 2518ms total)
T29E4 004:395 JLINK_WriteReg(R6, 0x00000000)  returns 0x00 (0000ms, 2518ms total)
T29E4 004:395 JLINK_WriteReg(R7, 0x00000000)  returns 0x00 (0001ms, 2519ms total)
T29E4 004:396 JLINK_WriteReg(R8, 0x00000000)  returns 0x00 (0000ms, 2519ms total)
T29E4 004:396 JLINK_WriteReg(R9, 0x2000017C)  returns 0x00 (0000ms, 2519ms total)
T29E4 004:396 JLINK_WriteReg(R10, 0x00000000)  returns 0x00 (0000ms, 2519ms total)
T29E4 004:396 JLINK_WriteReg(R11, 0x00000000)  returns 0x00 (0000ms, 2519ms total)
T29E4 004:396 JLINK_WriteReg(R12, 0x00000000)  returns 0x00 (0000ms, 2519ms total)
T29E4 004:396 JLINK_WriteReg(R13 (SP), 0x20001000)  returns 0x00 (0000ms, 2519ms total)
T29E4 004:396 JLINK_WriteReg(R14, 0x20000001)  returns 0x00 (0000ms, 2519ms total)
T29E4 004:396 JLINK_WriteReg(R15 (PC), 0x20000108)  returns 0x00 (0000ms, 2519ms total)
T29E4 004:396 JLINK_WriteReg(XPSR, 0x01000000)  returns 0x00 (0000ms, 2519ms total)
T29E4 004:396 JLINK_WriteReg(MSP, 0x20001000)  returns 0x00 (0000ms, 2519ms total)
T29E4 004:396 JLINK_WriteReg(PSP, 0x20001000)  returns 0x00 (0000ms, 2519ms total)
T29E4 004:396 JLINK_WriteReg(CFBP, 0x00000000)  returns 0x00 (0000ms, 2519ms total)
T29E4 004:396 JLINK_SetBPEx(Addr = 0x20000000, Type = 0xFFFFFFF2)  returns 0x0000000B (0000ms, 2519ms total)
T29E4 004:396 JLINK_Go() (0029ms, 2548ms total)
T29E4 004:425 JLINK_IsHalted() -- CPU_ReadMem(2 bytes @ 0x20000000)  returns TRUE (0077ms, 2625ms total)
T29E4 004:502 JLINK_ReadReg(R15 (PC))  returns 0x20000000 (0000ms, 2548ms total)
T29E4 004:502 JLINK_ClrBPEx(BPHandle = 0x0000000B)  returns 0x00 (0000ms, 2548ms total)
T29E4 004:502 JLINK_ReadReg(R0)  returns 0x00000000 (0000ms, 2548ms total)
T29E4 004:504 JLINK_WriteMem(0x20000180, 0x0400 Bytes, ...) -- Data:  40 0F 00 20 00 00 3D 20 10 64 02 40 01 46 00 20 ... -- CPU_WriteMem(1024 bytes @ 0x20000180)  returns 0x400 (0249ms, 2797ms total)
T29E4 004:753 JLINK_WriteReg(R0, 0x08001000)  returns 0x00 (0000ms, 2797ms total)
T29E4 004:753 JLINK_WriteReg(R1, 0x00000400)  returns 0x00 (0000ms, 2797ms total)
T29E4 004:753 JLINK_WriteReg(R2, 0x20000180)  returns 0x00 (0000ms, 2797ms total)
T29E4 004:753 JLINK_WriteReg(R3, 0x00000000)  returns 0x00 (0000ms, 2797ms total)
T29E4 004:753 JLINK_WriteReg(R4, 0x00000000)  returns 0x00 (0000ms, 2797ms total)
T29E4 004:753 JLINK_WriteReg(R5, 0x00000000)  returns 0x00 (0000ms, 2797ms total)
T29E4 004:753 JLINK_WriteReg(R6, 0x00000000)  returns 0x00 (0000ms, 2797ms total)
T29E4 004:753 JLINK_WriteReg(R7, 0x00000000)  returns 0x00 (0000ms, 2797ms total)
T29E4 004:753 JLINK_WriteReg(R8, 0x00000000)  returns 0x00 (0001ms, 2798ms total)
T29E4 004:754 JLINK_WriteReg(R9, 0x2000017C)  returns 0x00 (0000ms, 2798ms total)
T29E4 004:754 JLINK_WriteReg(R10, 0x00000000)  returns 0x00 (0000ms, 2798ms total)
T29E4 004:754 JLINK_WriteReg(R11, 0x00000000)  returns 0x00 (0000ms, 2798ms total)
T29E4 004:754 JLINK_WriteReg(R12, 0x00000000)  returns 0x00 (0000ms, 2798ms total)
T29E4 004:754 JLINK_WriteReg(R13 (SP), 0x20001000)  returns 0x00 (0000ms, 2798ms total)
T29E4 004:754 JLINK_WriteReg(R14, 0x20000001)  returns 0x00 (0000ms, 2798ms total)
T29E4 004:754 JLINK_WriteReg(R15 (PC), 0x20000108)  returns 0x00 (0000ms, 2798ms total)
T29E4 004:754 JLINK_WriteReg(XPSR, 0x01000000)  returns 0x00 (0000ms, 2798ms total)
T29E4 004:754 JLINK_WriteReg(MSP, 0x20001000)  returns 0x00 (0000ms, 2798ms total)
T29E4 004:754 JLINK_WriteReg(PSP, 0x20001000)  returns 0x00 (0000ms, 2798ms total)
T29E4 004:754 JLINK_WriteReg(CFBP, 0x00000000)  returns 0x00 (0000ms, 2798ms total)
T29E4 004:754 JLINK_SetBPEx(Addr = 0x20000000, Type = 0xFFFFFFF2)  returns 0x0000000C (0000ms, 2798ms total)
T29E4 004:754 JLINK_Go() (0028ms, 2826ms total)
T29E4 004:782 JLINK_IsHalted() -- CPU_ReadMem(2 bytes @ 0x20000000)  returns TRUE (0077ms, 2903ms total)
T29E4 004:859 JLINK_ReadReg(R15 (PC))  returns 0x20000000 (0000ms, 2826ms total)
T29E4 004:859 JLINK_ClrBPEx(BPHandle = 0x0000000C)  returns 0x00 (0000ms, 2826ms total)
T29E4 004:859 JLINK_ReadReg(R0)  returns 0x00000000 (0000ms, 2826ms total)
T29E4 004:860 JLINK_WriteMem(0x20000180, 0x0400 Bytes, ...) -- Data:  DB FB 0E BD 01 49 08 60 70 47 00 00 14 3C 01 40 ... -- CPU_WriteMem(1024 bytes @ 0x20000180)  returns 0x400 (0250ms, 3076ms total)
T29E4 005:110 JLINK_WriteReg(R0, 0x08001400)  returns 0x00 (0000ms, 3076ms total)
T29E4 005:110 JLINK_WriteReg(R1, 0x00000400)  returns 0x00 (0001ms, 3077ms total)
T29E4 005:111 JLINK_WriteReg(R2, 0x20000180)  returns 0x00 (0000ms, 3077ms total)
T29E4 005:111 JLINK_WriteReg(R3, 0x00000000)  returns 0x00 (0000ms, 3077ms total)
T29E4 005:111 JLINK_WriteReg(R4, 0x00000000)  returns 0x00 (0000ms, 3077ms total)
T29E4 005:111 JLINK_WriteReg(R5, 0x00000000)  returns 0x00 (0000ms, 3077ms total)
T29E4 005:111 JLINK_WriteReg(R6, 0x00000000)  returns 0x00 (0000ms, 3077ms total)
T29E4 005:111 JLINK_WriteReg(R7, 0x00000000)  returns 0x00 (0000ms, 3077ms total)
T29E4 005:111 JLINK_WriteReg(R8, 0x00000000)  returns 0x00 (0000ms, 3077ms total)
T29E4 005:111 JLINK_WriteReg(R9, 0x2000017C)  returns 0x00 (0000ms, 3077ms total)
T29E4 005:111 JLINK_WriteReg(R10, 0x00000000)  returns 0x00 (0000ms, 3077ms total)
T29E4 005:111 JLINK_WriteReg(R11, 0x00000000)  returns 0x00 (0000ms, 3077ms total)
T29E4 005:111 JLINK_WriteReg(R12, 0x00000000)  returns 0x00 (0000ms, 3077ms total)
T29E4 005:111 JLINK_WriteReg(R13 (SP), 0x20001000)  returns 0x00 (0000ms, 3077ms total)
T29E4 005:111 JLINK_WriteReg(R14, 0x20000001)  returns 0x00 (0000ms, 3077ms total)
T29E4 005:111 JLINK_WriteReg(R15 (PC), 0x20000108)  returns 0x00 (0000ms, 3077ms total)
T29E4 005:111 JLINK_WriteReg(XPSR, 0x01000000)  returns 0x00 (0000ms, 3077ms total)
T29E4 005:111 JLINK_WriteReg(MSP, 0x20001000)  returns 0x00 (0000ms, 3077ms total)
T29E4 005:111 JLINK_WriteReg(PSP, 0x20001000)  returns 0x00 (0001ms, 3078ms total)
T29E4 005:112 JLINK_WriteReg(CFBP, 0x00000000)  returns 0x00 (0000ms, 3078ms total)
T29E4 005:112 JLINK_SetBPEx(Addr = 0x20000000, Type = 0xFFFFFFF2)  returns 0x0000000D (0000ms, 3078ms total)
T29E4 005:112 JLINK_Go() (0027ms, 3105ms total)
T29E4 005:139 JLINK_IsHalted() -- CPU_ReadMem(2 bytes @ 0x20000000)  returns TRUE (0076ms, 3181ms total)
T29E4 005:215 JLINK_ReadReg(R15 (PC))  returns 0x20000000 (0000ms, 3105ms total)
T29E4 005:215 JLINK_ClrBPEx(BPHandle = 0x0000000D)  returns 0x00 (0001ms, 3106ms total)
T29E4 005:216 JLINK_ReadReg(R0)  returns 0x00000000 (0000ms, 3106ms total)
T29E4 005:216 JLINK_WriteMem(0x20000180, 0x0400 Bytes, ...) -- Data:  03 F0 CA FF 00 23 1A 46 19 46 50 48 00 68 03 F0 ... -- CPU_WriteMem(1024 bytes @ 0x20000180)  returns 0x400 (0249ms, 3355ms total)
T29E4 005:465 JLINK_WriteReg(R0, 0x08001800)  returns 0x00 (0000ms, 3355ms total)
T29E4 005:465 JLINK_WriteReg(R1, 0x00000400)  returns 0x00 (0000ms, 3355ms total)
T29E4 005:465 JLINK_WriteReg(R2, 0x20000180)  returns 0x00 (0000ms, 3355ms total)
T29E4 005:465 JLINK_WriteReg(R3, 0x00000000)  returns 0x00 (0000ms, 3355ms total)
T29E4 005:465 JLINK_WriteReg(R4, 0x00000000)  returns 0x00 (0000ms, 3355ms total)
T29E4 005:465 JLINK_WriteReg(R5, 0x00000000)  returns 0x00 (0000ms, 3355ms total)
T29E4 005:465 JLINK_WriteReg(R6, 0x00000000)  returns 0x00 (0000ms, 3355ms total)
T29E4 005:465 JLINK_WriteReg(R7, 0x00000000)  returns 0x00 (0000ms, 3355ms total)
T29E4 005:465 JLINK_WriteReg(R8, 0x00000000)  returns 0x00 (0000ms, 3355ms total)
T29E4 005:465 JLINK_WriteReg(R9, 0x2000017C)  returns 0x00 (0000ms, 3355ms total)
T29E4 005:466 JLINK_WriteReg(R10, 0x00000000)  returns 0x00 (0000ms, 3355ms total)
T29E4 005:466 JLINK_WriteReg(R11, 0x00000000)  returns 0x00 (0000ms, 3355ms total)
T29E4 005:466 JLINK_WriteReg(R12, 0x00000000)  returns 0x00 (0000ms, 3355ms total)
T29E4 005:466 JLINK_WriteReg(R13 (SP), 0x20001000)  returns 0x00 (0000ms, 3355ms total)
T29E4 005:466 JLINK_WriteReg(R14, 0x20000001)  returns 0x00 (0000ms, 3355ms total)
T29E4 005:466 JLINK_WriteReg(R15 (PC), 0x20000108)  returns 0x00 (0000ms, 3355ms total)
T29E4 005:466 JLINK_WriteReg(XPSR, 0x01000000)  returns 0x00 (0000ms, 3355ms total)
T29E4 005:466 JLINK_WriteReg(MSP, 0x20001000)  returns 0x00 (0000ms, 3355ms total)
T29E4 005:466 JLINK_WriteReg(PSP, 0x20001000)  returns 0x00 (0000ms, 3355ms total)
T29E4 005:466 JLINK_WriteReg(CFBP, 0x00000000)  returns 0x00 (0000ms, 3355ms total)
T29E4 005:466 JLINK_SetBPEx(Addr = 0x20000000, Type = 0xFFFFFFF2)  returns 0x0000000E (0000ms, 3355ms total)
T29E4 005:466 JLINK_Go() (0027ms, 3382ms total)
T29E4 005:493 JLINK_IsHalted() -- CPU_ReadMem(2 bytes @ 0x20000000)  returns TRUE (0077ms, 3459ms total)
T29E4 005:570 JLINK_ReadReg(R15 (PC))  returns 0x20000000 (0000ms, 3382ms total)
T29E4 005:570 JLINK_ClrBPEx(BPHandle = 0x0000000E)  returns 0x00 (0000ms, 3382ms total)
T29E4 005:570 JLINK_ReadReg(R0)  returns 0x00000000 (0000ms, 3382ms total)
T29E4 005:570 JLINK_WriteMem(0x20000180, 0x0400 Bytes, ...) -- Data:  AD 00 05 F1 E0 25 C5 F8 00 41 09 E0 04 78 04 F0 ... -- CPU_WriteMem(1024 bytes @ 0x20000180)  returns 0x400 (0249ms, 3631ms total)
T29E4 005:819 JLINK_WriteReg(R0, 0x08001C00)  returns 0x00 (0000ms, 3631ms total)
T29E4 005:819 JLINK_WriteReg(R1, 0x00000400)  returns 0x00 (0000ms, 3631ms total)
T29E4 005:819 JLINK_WriteReg(R2, 0x20000180)  returns 0x00 (0000ms, 3631ms total)
T29E4 005:819 JLINK_WriteReg(R3, 0x00000000)  returns 0x00 (0000ms, 3631ms total)
T29E4 005:819 JLINK_WriteReg(R4, 0x00000000)  returns 0x00 (0000ms, 3631ms total)
T29E4 005:819 JLINK_WriteReg(R5, 0x00000000)  returns 0x00 (0000ms, 3631ms total)
T29E4 005:819 JLINK_WriteReg(R6, 0x00000000)  returns 0x00 (0001ms, 3632ms total)
T29E4 005:820 JLINK_WriteReg(R7, 0x00000000)  returns 0x00 (0000ms, 3632ms total)
T29E4 005:820 JLINK_WriteReg(R8, 0x00000000)  returns 0x00 (0000ms, 3632ms total)
T29E4 005:820 JLINK_WriteReg(R9, 0x2000017C)  returns 0x00 (0000ms, 3632ms total)
T29E4 005:820 JLINK_WriteReg(R10, 0x00000000)  returns 0x00 (0000ms, 3632ms total)
T29E4 005:820 JLINK_WriteReg(R11, 0x00000000)  returns 0x00 (0000ms, 3632ms total)
T29E4 005:820 JLINK_WriteReg(R12, 0x00000000)  returns 0x00 (0000ms, 3632ms total)
T29E4 005:820 JLINK_WriteReg(R13 (SP), 0x20001000)  returns 0x00 (0000ms, 3632ms total)
T29E4 005:820 JLINK_WriteReg(R14, 0x20000001)  returns 0x00 (0000ms, 3632ms total)
T29E4 005:820 JLINK_WriteReg(R15 (PC), 0x20000108)  returns 0x00 (0000ms, 3632ms total)
T29E4 005:820 JLINK_WriteReg(XPSR, 0x01000000)  returns 0x00 (0000ms, 3632ms total)
T29E4 005:820 JLINK_WriteReg(MSP, 0x20001000)  returns 0x00 (0000ms, 3632ms total)
T29E4 005:820 JLINK_WriteReg(PSP, 0x20001000)  returns 0x00 (0000ms, 3632ms total)
T29E4 005:820 JLINK_WriteReg(CFBP, 0x00000000)  returns 0x00 (0000ms, 3632ms total)
T29E4 005:820 JLINK_SetBPEx(Addr = 0x20000000, Type = 0xFFFFFFF2)  returns 0x0000000F (0000ms, 3632ms total)
T29E4 005:820 JLINK_Go() (0028ms, 3660ms total)
T29E4 005:848 JLINK_IsHalted() -- CPU_ReadMem(2 bytes @ 0x20000000)  returns TRUE (0077ms, 3737ms total)
T29E4 005:925 JLINK_ReadReg(R15 (PC))  returns 0x20000000 (0000ms, 3660ms total)
T29E4 005:925 JLINK_ClrBPEx(BPHandle = 0x0000000F)  returns 0x00 (0000ms, 3660ms total)
T29E4 005:925 JLINK_ReadReg(R0)  returns 0x00000000 (0000ms, 3660ms total)
T29E4 005:927 JLINK_WriteMem(0x20000180, 0x0400 Bytes, ...) -- Data:  00 68 40 F0 80 50 39 49 08 60 39 48 00 68 40 F4 ... -- CPU_WriteMem(1024 bytes @ 0x20000180)  returns 0x400 (0249ms, 3910ms total)
T29E4 006:178 JLINK_WriteReg(R0, 0x08002000)  returns 0x00 (0000ms, 3910ms total)
T29E4 006:178 JLINK_WriteReg(R1, 0x00000400)  returns 0x00 (0000ms, 3910ms total)
T29E4 006:178 JLINK_WriteReg(R2, 0x20000180)  returns 0x00 (0000ms, 3910ms total)
T29E4 006:178 JLINK_WriteReg(R3, 0x00000000)  returns 0x00 (0000ms, 3910ms total)
T29E4 006:178 JLINK_WriteReg(R4, 0x00000000)  returns 0x00 (0000ms, 3910ms total)
T29E4 006:178 JLINK_WriteReg(R5, 0x00000000)  returns 0x00 (0000ms, 3910ms total)
T29E4 006:178 JLINK_WriteReg(R6, 0x00000000)  returns 0x00 (0000ms, 3910ms total)
T29E4 006:178 JLINK_WriteReg(R7, 0x00000000)  returns 0x00 (0000ms, 3910ms total)
T29E4 006:178 JLINK_WriteReg(R8, 0x00000000)  returns 0x00 (0000ms, 3910ms total)
T29E4 006:178 JLINK_WriteReg(R9, 0x2000017C)  returns 0x00 (0000ms, 3910ms total)
T29E4 006:178 JLINK_WriteReg(R10, 0x00000000)  returns 0x00 (0000ms, 3910ms total)
T29E4 006:178 JLINK_WriteReg(R11, 0x00000000)  returns 0x00 (0000ms, 3910ms total)
T29E4 006:178 JLINK_WriteReg(R12, 0x00000000)  returns 0x00 (0000ms, 3910ms total)
T29E4 006:178 JLINK_WriteReg(R13 (SP), 0x20001000)  returns 0x00 (0000ms, 3910ms total)
T29E4 006:178 JLINK_WriteReg(R14, 0x20000001)  returns 0x00 (0000ms, 3910ms total)
T29E4 006:178 JLINK_WriteReg(R15 (PC), 0x20000108)  returns 0x00 (0001ms, 3911ms total)
T29E4 006:179 JLINK_WriteReg(XPSR, 0x01000000)  returns 0x00 (0000ms, 3911ms total)
T29E4 006:179 JLINK_WriteReg(MSP, 0x20001000)  returns 0x00 (0000ms, 3911ms total)
T29E4 006:179 JLINK_WriteReg(PSP, 0x20001000)  returns 0x00 (0000ms, 3911ms total)
T29E4 006:179 JLINK_WriteReg(CFBP, 0x00000000)  returns 0x00 (0000ms, 3911ms total)
T29E4 006:179 JLINK_SetBPEx(Addr = 0x20000000, Type = 0xFFFFFFF2)  returns 0x00000010 (0000ms, 3911ms total)
T29E4 006:179 JLINK_Go() (0027ms, 3938ms total)
T29E4 006:206 JLINK_IsHalted() -- CPU_ReadMem(2 bytes @ 0x20000000)  returns TRUE (0077ms, 4015ms total)
T29E4 006:283 JLINK_ReadReg(R15 (PC))  returns 0x20000000 (0000ms, 3938ms total)
T29E4 006:283 JLINK_ClrBPEx(BPHandle = 0x00000010)  returns 0x00 (0000ms, 3938ms total)
T29E4 006:284 JLINK_ReadReg(R0)  returns 0x00000000 (0000ms, 3938ms total)
T29E4 006:285 JLINK_WriteMem(0x20000180, 0x0400 Bytes, ...) -- Data:  00 30 00 90 01 98 40 1C 01 90 00 98 18 B9 01 98 ... -- CPU_WriteMem(1024 bytes @ 0x20000180)  returns 0x400 (0248ms, 4186ms total)
T29E4 006:533 JLINK_WriteReg(R0, 0x08002400)  returns 0x00 (0000ms, 4186ms total)
T29E4 006:533 JLINK_WriteReg(R1, 0x00000400)  returns 0x00 (0000ms, 4186ms total)
T29E4 006:533 JLINK_WriteReg(R2, 0x20000180)  returns 0x00 (0000ms, 4186ms total)
T29E4 006:533 JLINK_WriteReg(R3, 0x00000000)  returns 0x00 (0000ms, 4186ms total)
T29E4 006:533 JLINK_WriteReg(R4, 0x00000000)  returns 0x00 (0001ms, 4187ms total)
T29E4 006:534 JLINK_WriteReg(R5, 0x00000000)  returns 0x00 (0000ms, 4187ms total)
T29E4 006:534 JLINK_WriteReg(R6, 0x00000000)  returns 0x00 (0000ms, 4187ms total)
T29E4 006:534 JLINK_WriteReg(R7, 0x00000000)  returns 0x00 (0000ms, 4187ms total)
T29E4 006:534 JLINK_WriteReg(R8, 0x00000000)  returns 0x00 (0000ms, 4187ms total)
T29E4 006:534 JLINK_WriteReg(R9, 0x2000017C)  returns 0x00 (0000ms, 4187ms total)
T29E4 006:534 JLINK_WriteReg(R10, 0x00000000)  returns 0x00 (0000ms, 4187ms total)
T29E4 006:534 JLINK_WriteReg(R11, 0x00000000)  returns 0x00 (0000ms, 4187ms total)
T29E4 006:534 JLINK_WriteReg(R12, 0x00000000)  returns 0x00 (0000ms, 4187ms total)
T29E4 006:534 JLINK_WriteReg(R13 (SP), 0x20001000)  returns 0x00 (0000ms, 4187ms total)
T29E4 006:534 JLINK_WriteReg(R14, 0x20000001)  returns 0x00 (0000ms, 4187ms total)
T29E4 006:534 JLINK_WriteReg(R15 (PC), 0x20000108)  returns 0x00 (0000ms, 4187ms total)
T29E4 006:534 JLINK_WriteReg(XPSR, 0x01000000)  returns 0x00 (0000ms, 4187ms total)
T29E4 006:534 JLINK_WriteReg(MSP, 0x20001000)  returns 0x00 (0000ms, 4187ms total)
T29E4 006:534 JLINK_WriteReg(PSP, 0x20001000)  returns 0x00 (0000ms, 4187ms total)
T29E4 006:534 JLINK_WriteReg(CFBP, 0x00000000)  returns 0x00 (0001ms, 4188ms total)
T29E4 006:535 JLINK_SetBPEx(Addr = 0x20000000, Type = 0xFFFFFFF2)  returns 0x00000011 (0000ms, 4188ms total)
T29E4 006:535 JLINK_Go() (0027ms, 4215ms total)
T29E4 006:562 JLINK_IsHalted() -- CPU_ReadMem(2 bytes @ 0x20000000)  returns TRUE (0076ms, 4291ms total)
T29E4 006:638 JLINK_ReadReg(R15 (PC))  returns 0x20000000 (0000ms, 4215ms total)
T29E4 006:638 JLINK_ClrBPEx(BPHandle = 0x00000011)  returns 0x00 (0000ms, 4215ms total)
T29E4 006:638 JLINK_ReadReg(R0)  returns 0x00000000 (0000ms, 4215ms total)
T29E4 006:639 JLINK_WriteMem(0x20000180, 0x0400 Bytes, ...) -- Data:  71 89 08 43 04 43 AC 81 AC 8A 24 F4 40 74 B0 89 ... -- CPU_WriteMem(1024 bytes @ 0x20000180)  returns 0x400 (0249ms, 4464ms total)
T29E4 006:888 JLINK_WriteReg(R0, 0x08002800)  returns 0x00 (0000ms, 4464ms total)
T29E4 006:888 JLINK_WriteReg(R1, 0x00000400)  returns 0x00 (0000ms, 4464ms total)
T29E4 006:888 JLINK_WriteReg(R2, 0x20000180)  returns 0x00 (0000ms, 4464ms total)
T29E4 006:888 JLINK_WriteReg(R3, 0x00000000)  returns 0x00 (0000ms, 4464ms total)
T29E4 006:889 JLINK_WriteReg(R4, 0x00000000)  returns 0x00 (0000ms, 4464ms total)
T29E4 006:889 JLINK_WriteReg(R5, 0x00000000)  returns 0x00 (0000ms, 4464ms total)
T29E4 006:889 JLINK_WriteReg(R6, 0x00000000)  returns 0x00 (0000ms, 4464ms total)
T29E4 006:889 JLINK_WriteReg(R7, 0x00000000)  returns 0x00 (0000ms, 4464ms total)
T29E4 006:889 JLINK_WriteReg(R8, 0x00000000)  returns 0x00 (0000ms, 4464ms total)
T29E4 006:889 JLINK_WriteReg(R9, 0x2000017C)  returns 0x00 (0000ms, 4464ms total)
T29E4 006:889 JLINK_WriteReg(R10, 0x00000000)  returns 0x00 (0000ms, 4464ms total)
T29E4 006:889 JLINK_WriteReg(R11, 0x00000000)  returns 0x00 (0000ms, 4464ms total)
T29E4 006:889 JLINK_WriteReg(R12, 0x00000000)  returns 0x00 (0000ms, 4464ms total)
T29E4 006:889 JLINK_WriteReg(R13 (SP), 0x20001000)  returns 0x00 (0000ms, 4464ms total)
T29E4 006:889 JLINK_WriteReg(R14, 0x20000001)  returns 0x00 (0000ms, 4464ms total)
T29E4 006:889 JLINK_WriteReg(R15 (PC), 0x20000108)  returns 0x00 (0000ms, 4464ms total)
T29E4 006:889 JLINK_WriteReg(XPSR, 0x01000000)  returns 0x00 (0000ms, 4464ms total)
T29E4 006:889 JLINK_WriteReg(MSP, 0x20001000)  returns 0x00 (0000ms, 4464ms total)
T29E4 006:889 JLINK_WriteReg(PSP, 0x20001000)  returns 0x00 (0000ms, 4464ms total)
T29E4 006:889 JLINK_WriteReg(CFBP, 0x00000000)  returns 0x00 (0000ms, 4464ms total)
T29E4 006:889 JLINK_SetBPEx(Addr = 0x20000000, Type = 0xFFFFFFF2)  returns 0x00000012 (0000ms, 4464ms total)
T29E4 006:889 JLINK_Go() (0027ms, 4491ms total)
T29E4 006:916 JLINK_IsHalted() -- CPU_ReadMem(2 bytes @ 0x20000000)  returns TRUE (0077ms, 4568ms total)
T29E4 006:993 JLINK_ReadReg(R15 (PC))  returns 0x20000000 (0000ms, 4491ms total)
T29E4 006:993 JLINK_ClrBPEx(BPHandle = 0x00000012)  returns 0x00 (0000ms, 4491ms total)
T29E4 006:993 JLINK_ReadReg(R0)  returns 0x00000000 (0000ms, 4491ms total)
T29E4 006:994 JLINK_WriteMem(0x20000180, 0x0400 Bytes, ...) -- Data:  1A 46 19 46 11 48 00 68 02 F0 C6 FD 00 20 10 49 ... -- CPU_WriteMem(1024 bytes @ 0x20000180)  returns 0x400 (0250ms, 4741ms total)
T29E4 007:245 JLINK_WriteReg(R0, 0x08002C00)  returns 0x00 (0000ms, 4741ms total)
T29E4 007:245 JLINK_WriteReg(R1, 0x00000400)  returns 0x00 (0000ms, 4741ms total)
T29E4 007:245 JLINK_WriteReg(R2, 0x20000180)  returns 0x00 (0000ms, 4741ms total)
T29E4 007:245 JLINK_WriteReg(R3, 0x00000000)  returns 0x00 (0000ms, 4741ms total)
T29E4 007:245 JLINK_WriteReg(R4, 0x00000000)  returns 0x00 (0000ms, 4741ms total)
T29E4 007:245 JLINK_WriteReg(R5, 0x00000000)  returns 0x00 (0000ms, 4741ms total)
T29E4 007:245 JLINK_WriteReg(R6, 0x00000000)  returns 0x00 (0000ms, 4741ms total)
